
T2DCC 000:633 SEGGER J-Link V4.90 Log File (0002ms, 0297ms total)
T2DCC 000:633 DLL Compiled: Jul 28 2014 10:35:20 (0002ms, 0297ms total)
T2DCC 000:633 Logging started @ 2019-10-15 12:51 (0002ms, 0297ms total)
T2DCC 000:635 JLINK_SetWarnOutHandler(...) (0001ms, 0298ms total)
T2DCC 000:636 JLINK_OpenEx(...)
Firmware: J-Link V9 compiled Sep  1 2016 18:29:50
Hardware: V9.40
S/N: 59404884
Feature(s): RDI, GDB, FlashDL, FlashBP, JFlash  returns O.K. (0314ms, 0612ms total)
T2DCC 000:950 JLINK_SetErrorOutHandler(...) (0000ms, 0612ms total)
T2DCC 000:950 JLINK_ExecCommand("ProjectFile = "E:\My_Project\4GÄ£¿é\E110_1\Abox\JLinkSettings.ini"", ...)  returns 0x00 (0001ms, 0613ms total)
T2DCC 000:951 JLINK_ExecCommand("Device = STM32F407VG", ...)Device "STM32F407VG" selected (1024 KB flash, 128 KB RAM).  returns 0x00 (0003ms, 0616ms total)
T2DCC 000:954 JLINK_ExecCommand("DisableConnectionTimeout", ...)  returns 0x01 (0000ms, 0616ms total)
T2DCC 000:954 JLINK_GetHardwareVersion()  returns 0x16F30 (0000ms, 0616ms total)
T2DCC 000:954 JLINK_GetDLLVersion()  returns 49000 (0000ms, 0616ms total)
T2DCC 000:954 JLINK_GetFirmwareString(...) (0000ms, 0616ms total)
T2DCC 000:955 JLINK_GetDLLVersion()  returns 49000 (0000ms, 0616ms total)
T2DCC 000:955 JLINK_GetCompileDateTime() (0000ms, 0616ms total)
T2DCC 000:956 JLINK_GetFirmwareString(...) (0000ms, 0616ms total)
T2DCC 000:956 JLINK_GetHardwareVersion()  returns 0x16F30 (0000ms, 0616ms total)
T2DCC 000:958 JLINK_TIF_Select(JLINKARM_TIF_SWD)  returns 0x00 (0003ms, 0619ms total)
T2DCC 000:961 JLINK_SetMaxSpeed() >0x108 TIF>Found SWD-DP with ID 0x2BA01477 >0x0D TIF> >0x28 TIF> >0x0D TIF> >0x28 TIF> >0x0D TIF> >0x21 TIF> >0x0D TIF> >0x28 TIF> >0x0D TIF> >0x28 TIF> >0x0D TIF> >0x28 TIF> >0x0D TIF> >0x21 TIF> >0x0D TIF> >0x21 TIF> >0x0D TIF> >0x28 TIF> >0x0D TIF> >0x21 TIF> >0x0D TIF> >0x21 TIF> >0x0D TIF> >0x28 TIF> >0x0D TIF> >0x21 TIF> >0x0D TIF> >0x21 TIF> >0x108 TIF>Found SWD-DP with ID 0x2BA01477 >0x0D TIF> >0x21 TIF> >0x0D TIF> >0x28 TIF> >0x0D TIF> >0x28 TIF> >0x0D TIF>
 >0x21 TIF> >0x0D TIF> >0x28 TIF> >0x0D TIF> >0x21 TIF> >0x0D TIF> >0x21 TIF> >0x0D TIF> >0x21 TIF> >0x0D TIF> >0x21 TIF> >0x0D TIF> >0x28 TIF> >0x0D TIF> >0x28 TIF> >0x0D TIF> >0x21 TIF> >0x0D TIF> >0x28 TIF> >0x0D TIF> >0x28 TIF> >0x0D TIF> >0x28 TIF> >0x0D TIF> >0x21 TIF> >0x0D TIF> >0x21 TIF> >0x0D TIF> >0x28 TIF> >0x0D TIF> >0x21 TIF> >0x0D TIF> >0x21 TIF>Found Cortex-M4 r0p1, Little endian. -- CPU_WriteMem(4 bytes @ 0xE0002000) -- CPU_ReadMem(4 bytes @ 0xE000EDF0)
 -- CPU_ReadMem(4 bytes @ 0xE0002000)FPUnit: 6 code (BP) slots and 2 literal slots -- CPU_ReadMem(4 bytes @ 0xE000EDFC) -- CPU_ReadMem(4 bytes @ 0xE0001000) -- CPU_WriteMem(4 bytes @ 0xE0001000) -- CPU_ReadMem(4 bytes @ 0xE00FF010)TPIU fitted. -- CPU_ReadMem(4 bytes @ 0xE00FF014)ETM fitted. -- CPU_ReadMem(4 bytes @ 0xE00FF018) (0069ms, 0688ms total)
T2DCC 001:030 JLINK_GetSpeed()  returns 0x7D0 (0000ms, 0688ms total)
T2DCC 001:030 JLINK_GetId() >0x0D TIF> >0x21 TIF>  returns 0x2BA01477 (0002ms, 0690ms total)
T2DCC 001:032 JLINK_CORE_GetFound()  returns 0xE0000FF (0000ms, 0690ms total)
T2DCC 001:032 JLINK_ReadMem (0xE00FFFF0, 0x0010 Bytes, ...) -- CPU is running -- CPU_ReadMem(16 bytes @ 0xE00FFFF0) - Data: 0D 00 00 00 10 00 00 00 05 00 00 00 B1 00 00 00  returns 0x00 (0001ms, 0691ms total)
T2DCC 001:033 JLINK_ReadMem (0xE00FFFD0, 0x0020 Bytes, ...) -- CPU is running -- CPU_ReadMem(32 bytes @ 0xE00FFFD0) - Data: 00 00 00 00 00 00 00 00 00 00 00 00 00 00 00 00 ...  returns 0x00 (0001ms, 0692ms total)
T2DCC 001:034 JLINK_ReadMem (0xE00FF000, 0x0018 Bytes, ...) -- CPU is running -- CPU_ReadMem(24 bytes @ 0xE00FF000) - Data: 03 F0 F0 FF 03 20 F0 FF 03 30 F0 FF 03 10 F0 FF ...  returns 0x00 (0001ms, 0693ms total)
T2DCC 001:035 JLINK_CORE_GetFound()  returns 0xE0000FF (0000ms, 0693ms total)
T2DCC 001:035 JLINK_ReadMemU32(0xE000EF40, 0x0001 Items, ...) -- CPU is running -- CPU_ReadMem(4 bytes @ 0xE000EF40) - Data: 21 00 11 10  returns 0x01 (0001ms, 0694ms total)
T2DCC 001:036 JLINK_ReadMemU32(0xE000EF44, 0x0001 Items, ...) -- CPU is running -- CPU_ReadMem(4 bytes @ 0xE000EF44) - Data: 11 00 00 11  returns 0x01 (0001ms, 0695ms total)
T2DCC 001:037 JLINK_ReadMemU32(0xE000ED00, 0x0001 Items, ...) -- CPU is running -- CPU_ReadMem(4 bytes @ 0xE000ED00) - Data: 41 C2 0F 41  returns 0x01 (0000ms, 0695ms total)
T2DCC 001:037 JLINK_SetResetType(JLINKARM_RESET_TYPE_NORMAL)  returns JLINKARM_RESET_TYPE_NORMAL (0000ms, 0695ms total)
T2DCC 001:037 JLINK_Reset() -- CPU is running -- CPU_WriteMem(4 bytes @ 0xE000EDF0) -- CPU is running -- CPU_WriteMem(4 bytes @ 0xE000EDFC) >0x35 TIF> -- CPU is running -- CPU_WriteMem(4 bytes @ 0xE000ED0C) -- CPU is running -- CPU_ReadMem(4 bytes @ 0xE000EDF0) -- CPU is running -- CPU_ReadMem(4 bytes @ 0xE000EDF0) -- CPU is running -- CPU_WriteMem(4 bytes @ 0xE000EDF0) -- CPU is running -- CPU_WriteMem(4 bytes @ 0xE000EDFC) -- CPU is running -- CPU_ReadMem(4 bytes @ 0xE000EDF0)
 -- CPU_WriteMem(4 bytes @ 0xE0002000) -- CPU_ReadMem(4 bytes @ 0xE000EDFC) -- CPU_ReadMem(4 bytes @ 0xE0001000) (0027ms, 0722ms total)
T2DCC 001:064 JLINK_ReadReg(R15 (PC))  returns 0x0800019C (0001ms, 0723ms total)
T2DCC 001:065 JLINK_ReadReg(XPSR)  returns 0x01000000 (0000ms, 0723ms total)
T2DCC 001:065 JLINK_Halt()  returns 0x00 (0000ms, 0723ms total)
T2DCC 001:065 JLINK_IsHalted()  returns TRUE (0000ms, 0723ms total)
T2DCC 001:065 JLINK_ReadMemU32(0xE000EDF0, 0x0001 Items, ...) -- CPU_ReadMem(4 bytes @ 0xE000EDF0) - Data: 03 00 03 00  returns 0x01 (0001ms, 0724ms total)
T2DCC 001:066 JLINK_WriteU32(0xE000EDF0, 0xA05F0003) -- CPU_WriteMem(4 bytes @ 0xE000EDF0)  returns 0x00 (0001ms, 0725ms total)
T2DCC 001:067 JLINK_WriteU32(0xE000EDFC, 0x01000000) -- CPU_WriteMem(4 bytes @ 0xE000EDFC)  returns 0x00 (0000ms, 0725ms total)
T2DCC 001:068 JLINK_GetHWStatus(...)  returns 0x00 (0001ms, 0726ms total)
T2DCC 001:069 JLINK_GetNumBPUnits(Type = 0xFFFFFF00)  returns 0x06 (0000ms, 0726ms total)
T2DCC 001:069 JLINK_GetNumBPUnits(Type = 0xF0)  returns 0x2000 (0000ms, 0726ms total)
T2DCC 001:069 JLINK_GetNumWPUnits()  returns 0x04 (0000ms, 0726ms total)
T2DCC 001:070 JLINK_GetSpeed()  returns 0x7D0 (0000ms, 0726ms total)
T2DCC 001:070 JLINK_ReadMemU32(0xE000E004, 0x0001 Items, ...) -- CPU_ReadMem(4 bytes @ 0xE000E004) - Data: 02 00 00 00  returns 0x01 (0001ms, 0727ms total)
T2DCC 001:071 JLINK_ReadMemU32(0xE000E004, 0x0001 Items, ...) -- CPU_ReadMem(4 bytes @ 0xE000E004) - Data: 02 00 00 00  returns 0x01 (0001ms, 0728ms total)
T2DCC 001:072 JLINK_WriteMem(0xE0001000, 0x001C Bytes, ...) - Data: 01 00 00 00 00 00 00 00 00 00 00 00 00 00 00 00 ... -- CPU_WriteMem(28 bytes @ 0xE0001000)  returns 0x1C (0001ms, 0729ms total)
T2DCC 001:073 JLINK_ReadMem (0xE0001000, 0x001C Bytes, ...) -- CPU_ReadMem(28 bytes @ 0xE0001000) - Data: 01 00 00 40 00 00 00 00 00 00 00 00 00 00 00 00 ...  returns 0x00 (0001ms, 0730ms total)
T2DCC 001:074 JLINK_ReadReg(R15 (PC))  returns 0x0800019C (0000ms, 0730ms total)
T2DCC 001:074 JLINK_ReadReg(XPSR)  returns 0x01000000 (0000ms, 0730ms total)
T2DCC 001:386 JLINK_SetResetType(JLINKARM_RESET_TYPE_NORMAL)  returns JLINKARM_RESET_TYPE_NORMAL (0000ms, 0730ms total)
T2DCC 001:386 JLINK_Reset() -- CPU_WriteMem(4 bytes @ 0xE000EDF0) -- CPU_WriteMem(4 bytes @ 0xE000EDFC) >0x35 TIF> -- CPU_WriteMem(4 bytes @ 0xE000ED0C) -- CPU_ReadMem(4 bytes @ 0xE000EDF0) -- CPU_ReadMem(4 bytes @ 0xE000EDF0) -- CPU_WriteMem(4 bytes @ 0xE000EDF0) -- CPU_WriteMem(4 bytes @ 0xE000EDFC) -- CPU is running -- CPU_ReadMem(4 bytes @ 0xE000EDF0) -- CPU_WriteMem(4 bytes @ 0xE0002000) -- CPU_ReadMem(4 bytes @ 0xE000EDFC) -- CPU_ReadMem(4 bytes @ 0xE0001000) (0026ms, 0756ms total)
T2DCC 001:412 JLINK_ReadReg(R15 (PC))  returns 0x0800019C (0000ms, 0756ms total)
T2DCC 001:412 JLINK_ReadReg(XPSR)  returns 0x01000000 (0000ms, 0756ms total)
T2DCC 001:412 JLINK_ReadMem (0x0800019C, 0x003C Bytes, ...) -- CPU_ReadMem(128 bytes @ 0x08000180) -- Updating C cache (128 bytes @ 0x08000180) -- Read from C cache (60 bytes @ 0x0800019C) - Data: 06 48 80 47 06 48 00 47 FE E7 FE E7 FE E7 FE E7 ...  returns 0x00 (0003ms, 0759ms total)
T2DCC 003:392 JLINK_ReadMem (0x08013138, 0x003C Bytes, ...) -- CPU_ReadMem(128 bytes @ 0x08013100) -- Updating C cache (128 bytes @ 0x08013100) -- Read from C cache (60 bytes @ 0x08013138) - Data: 00 F0 2D F8 00 28 D6 D1 70 BD 30 46 BD E8 70 40 ...  returns 0x00 (0003ms, 0762ms total)
T2DCC 003:622 JLINK_ReadMem (0x20003E1C, 0x0020 Bytes, ...) -- CPU_ReadMem(64 bytes @ 0x20003E00) -- Updating C cache (64 bytes @ 0x20003E00) -- Read from C cache (32 bytes @ 0x20003E1C) - Data: 00 00 00 00 00 00 00 00 00 00 00 00 00 00 00 00 ...  returns 0x00 (0002ms, 0764ms total)
T2DCC 003:661 JLINK_ReadMem (0x20005824, 0x0020 Bytes, ...) -- CPU_ReadMem(128 bytes @ 0x20005800) -- Updating C cache (128 bytes @ 0x20005800) -- Read from C cache (32 bytes @ 0x20005824) - Data: FF 22 44 63 00 86 00 00 06 00 00 01 00 00 00 00 ...  returns 0x00 (0002ms, 0766ms total)
T2DCC 003:666 JLINK_ReadMem (0x20000478, 0x0004 Bytes, ...) -- CPU_ReadMem(64 bytes @ 0x20000440) -- Updating C cache (64 bytes @ 0x20000440) -- Read from C cache (4 bytes @ 0x20000478) - Data: FF FF FF FF  returns 0x00 (0001ms, 0767ms total)
T1AD0 003:853 JLINK_SetBPEx(Addr = 0x08009BC8, Type = 0xFFFFFFF2)  returns 0x00000001 (0001ms, 0768ms total)
T1AD0 003:854 JLINK_Go() -- CPU_WriteMem(4 bytes @ 0xE0002000) -- CPU_WriteMem(4 bytes @ 0xE0002008) -- CPU_WriteMem(4 bytes @ 0xE000200C) -- CPU_WriteMem(4 bytes @ 0xE0002010) -- CPU_WriteMem(4 bytes @ 0xE0002014) -- CPU_WriteMem(4 bytes @ 0xE0002018) -- CPU_WriteMem(4 bytes @ 0xE000201C) -- CPU_WriteMem(4 bytes @ 0xE0001004) (0007ms, 0775ms total)
T1AD0 003:961 JLINK_IsHalted()  returns TRUE (0004ms, 0779ms total)
T1AD0 003:965 JLINK_Halt()  returns 0x00 (0000ms, 0775ms total)
T1AD0 003:965 JLINK_IsHalted()  returns TRUE (0000ms, 0775ms total)
T1AD0 003:965 JLINK_IsHalted()  returns TRUE (0000ms, 0775ms total)
T1AD0 003:965 JLINK_IsHalted()  returns TRUE (0000ms, 0775ms total)
T1AD0 003:965 JLINK_ReadReg(R15 (PC))  returns 0x08009BC8 (0000ms, 0775ms total)
T1AD0 003:965 JLINK_ReadReg(XPSR)  returns 0x61000000 (0000ms, 0775ms total)
T1AD0 003:965 JLINK_ClrBPEx(BPHandle = 0x00000001)  returns 0x00 (0000ms, 0775ms total)
T1AD0 003:965 JLINK_ReadMemU32(0xE000ED30, 0x0001 Items, ...) -- CPU_ReadMem(4 bytes @ 0xE000ED30) - Data: 02 00 00 00  returns 0x01 (0001ms, 0776ms total)
T1AD0 003:966 JLINK_ReadMemU32(0xE0001028, 0x0001 Items, ...) -- CPU_ReadMem(4 bytes @ 0xE0001028) - Data: 00 00 00 00  returns 0x01 (0000ms, 0776ms total)
T1AD0 003:966 JLINK_ReadMemU32(0xE0001038, 0x0001 Items, ...) -- CPU_ReadMem(4 bytes @ 0xE0001038) - Data: 00 02 00 00  returns 0x01 (0001ms, 0777ms total)
T1AD0 003:967 JLINK_ReadMemU32(0xE0001048, 0x0001 Items, ...) -- CPU_ReadMem(4 bytes @ 0xE0001048) - Data: 00 00 00 00  returns 0x01 (0001ms, 0778ms total)
T1AD0 003:968 JLINK_ReadMemU32(0xE0001058, 0x0001 Items, ...) -- CPU_ReadMem(4 bytes @ 0xE0001058) - Data: 00 00 00 00  returns 0x01 (0001ms, 0779ms total)
T1AD0 003:969 JLINK_ReadReg(R0)  returns 0x08009BC9 (0000ms, 0779ms total)
T1AD0 003:969 JLINK_ReadReg(R1)  returns 0x2000A6A8 (0000ms, 0779ms total)
T1AD0 003:969 JLINK_ReadReg(R2)  returns 0x00000000 (0000ms, 0779ms total)
T1AD0 003:969 JLINK_ReadReg(R3)  returns 0x0803894D (0000ms, 0779ms total)
T1AD0 003:969 JLINK_ReadReg(R4)  returns 0x0803B5D4 (0000ms, 0779ms total)
T1AD0 003:969 JLINK_ReadReg(R5)  returns 0x0803B5D4 (0000ms, 0779ms total)
T1AD0 003:969 JLINK_ReadReg(R6)  returns 0x20000000 (0000ms, 0779ms total)
T1AD0 003:969 JLINK_ReadReg(R7)  returns 0x00000000 (0000ms, 0779ms total)
T1AD0 003:969 JLINK_ReadReg(R8)  returns 0x00000000 (0000ms, 0779ms total)
T1AD0 003:969 JLINK_ReadReg(R9)  returns 0x00000000 (0000ms, 0779ms total)
T1AD0 003:970 JLINK_ReadReg(R10)  returns 0x00000000 (0000ms, 0779ms total)
T1AD0 003:970 JLINK_ReadReg(R11)  returns 0x00000000 (0000ms, 0779ms total)
T1AD0 003:970 JLINK_ReadReg(R12)  returns 0x00000000 (0000ms, 0779ms total)
T1AD0 003:970 JLINK_ReadReg(R13 (SP))  returns 0x2000A6A8 (0000ms, 0779ms total)
T1AD0 003:970 JLINK_ReadReg(R14)  returns 0x080387AD (0000ms, 0779ms total)
T1AD0 003:970 JLINK_ReadReg(R15 (PC))  returns 0x08009BC8 (0000ms, 0779ms total)
T1AD0 003:970 JLINK_ReadReg(XPSR)  returns 0x61000000 (0000ms, 0779ms total)
T1AD0 003:970 JLINK_ReadReg(MSP)  returns 0x2000A6A8 (0000ms, 0779ms total)
T1AD0 003:970 JLINK_ReadReg(PSP)  returns 0x00000000 (0000ms, 0779ms total)
T1AD0 003:970 JLINK_ReadReg(CFBP)  returns 0x00000001 (0000ms, 0779ms total)
T1AD0 003:970 JLINK_ReadReg(FPSCR)  returns 0x00000000 (0006ms, 0785ms total)
T1AD0 003:976 JLINK_ReadReg(FPS0)  returns 0x00000000 (0000ms, 0785ms total)
T1AD0 003:976 JLINK_ReadReg(FPS1)  returns 0x00000000 (0000ms, 0785ms total)
T1AD0 003:976 JLINK_ReadReg(FPS2)  returns 0x00000000 (0000ms, 0785ms total)
T1AD0 003:976 JLINK_ReadReg(FPS3)  returns 0x00000000 (0000ms, 0785ms total)
T1AD0 003:976 JLINK_ReadReg(FPS4)  returns 0x00000000 (0000ms, 0785ms total)
T1AD0 003:976 JLINK_ReadReg(FPS5)  returns 0x00000000 (0000ms, 0785ms total)
T1AD0 003:976 JLINK_ReadReg(FPS6)  returns 0x00000000 (0000ms, 0785ms total)
T1AD0 003:976 JLINK_ReadReg(FPS7)  returns 0x00000000 (0000ms, 0785ms total)
T1AD0 003:976 JLINK_ReadReg(FPS8)  returns 0x00000000 (0000ms, 0785ms total)
T1AD0 003:976 JLINK_ReadReg(FPS9)  returns 0x00000000 (0000ms, 0785ms total)
T1AD0 003:976 JLINK_ReadReg(FPS10)  returns 0x00000000 (0000ms, 0785ms total)
T1AD0 003:976 JLINK_ReadReg(FPS11)  returns 0x00000000 (0001ms, 0786ms total)
T1AD0 003:977 JLINK_ReadReg(FPS12)  returns 0x00000000 (0000ms, 0786ms total)
T1AD0 003:977 JLINK_ReadReg(FPS13)  returns 0x00000000 (0000ms, 0786ms total)
T1AD0 003:977 JLINK_ReadReg(FPS14)  returns 0x00000000 (0000ms, 0786ms total)
T1AD0 003:977 JLINK_ReadReg(FPS15)  returns 0x00000000 (0000ms, 0786ms total)
T1AD0 003:977 JLINK_ReadReg(FPS16)  returns 0x00000000 (0000ms, 0786ms total)
T1AD0 003:977 JLINK_ReadReg(FPS17)  returns 0x00000000 (0000ms, 0786ms total)
T1AD0 003:977 JLINK_ReadReg(FPS18)  returns 0x00000000 (0000ms, 0786ms total)
T1AD0 003:977 JLINK_ReadReg(FPS19)  returns 0x00000000 (0000ms, 0786ms total)
T1AD0 003:977 JLINK_ReadReg(FPS20)  returns 0x00000000 (0000ms, 0786ms total)
T1AD0 003:977 JLINK_ReadReg(FPS21)  returns 0x00000000 (0000ms, 0786ms total)
T1AD0 003:977 JLINK_ReadReg(FPS22)  returns 0x00000000 (0000ms, 0786ms total)
T1AD0 003:977 JLINK_ReadReg(FPS23)  returns 0x00000000 (0000ms, 0786ms total)
T1AD0 003:977 JLINK_ReadReg(FPS24)  returns 0x00000000 (0000ms, 0786ms total)
T1AD0 003:977 JLINK_ReadReg(FPS25)  returns 0x00000000 (0000ms, 0786ms total)
T1AD0 003:977 JLINK_ReadReg(FPS26)  returns 0x00000000 (0000ms, 0786ms total)
T1AD0 003:977 JLINK_ReadReg(FPS27)  returns 0x00000000 (0000ms, 0786ms total)
T1AD0 003:977 JLINK_ReadReg(FPS28)  returns 0x00000000 (0000ms, 0786ms total)
T1AD0 003:977 JLINK_ReadReg(FPS29)  returns 0x00000000 (0000ms, 0786ms total)
T1AD0 003:977 JLINK_ReadReg(FPS30)  returns 0x00000000 (0000ms, 0786ms total)
T1AD0 003:977 JLINK_ReadReg(FPS31)  returns 0x00000000 (0000ms, 0786ms total)
T2DCC 007:127 JLINK_Close() -- CPU_WriteMem(4 bytes @ 0xE0002008) >0x42 TIF> >0x28 TIF> >0x0D TIF> >0x21 TIF> (0008ms, 0794ms total)
T2DCC 007:127  (0008ms, 0794ms total)
T2DCC 007:127 Closed (0008ms, 0794ms total)
